    1  ls
    2  aplay -D plughw:0,1 /usr/share/sounds/alsa/Front_Center.wav 
    3  aplay -D plughw:0,1 /usr/share/sounds/alsa/Front_Center.wav 
    4  psgrep
    5  ps -all
    6  ps 
    7  ps -A
    8  ps -A 
    9  ps -A  | grep "chrom"
   10  kill -9 2252
   11  kill -9 2263
   12  ps -A  | grep "chrom"
   13  aplay -D plughw:0,1 /usr/share/sounds/alsa/Front_Center.wav
   14  aplay -D plughw:0,1 /usr/share/sounds/alsa/Noise.wav 
   15  aplay -D plughw:0,1 /usr/share/sounds/alsa/Rear_Right.wav 
   16  aplay -D plughw:0,1 /usr/s
   17  aplay -D plughw:0,1 /usr/share/sounds/alsa/Rear_Right.wav 
   18  aplay -D plughw:0,1 /usr/share/sounds/alsa/Side_Left.wav 
   19  aplay -D plughw:0,1 /usr/share/sounds/alsa/Side_Left.wav 
   20  aplay -D plughw:0,1 /usr/share/sounds/alsa/Side_Left.wav 
   21  aplay -D plughw:0,1 /usr/share/sounds/alsa/Side_Left.wav 
   22  aplay -D plughw:0,1 /usr/share/sounds/alsa/Side_Left.wav 
   23  aplay -D plughw:0,1 /usr/share/sounds/alsa/Side_Left.wav 
   24  aplay -D plughw:0,1 /usr/share/sounds/alsa/Side_Left.wav 
   25  amixer cset iface=MIXER,name='RX3 Digital Volume' 20
   26  aplay -D plughw:0,1 /usr/share/sounds/alsa/Side_Left.wav 
   27  aplay -D plughw:0,1 /usr/share/sounds/alsa/Side_Left.wav 
   28  amixer cset iface=MIXER,name='RX3 Digital Volume' 100
   29  aplay -D plughw:0,1 /usr/share/sounds/alsa/Side_Left.wav 
   30  aplay -D plughw:0,1 /usr/share/sounds/alsa/Side_Left.wav 
   31  aplay -D plughw:0,1 /usr/share/sounds/alsa/Side_Left.wav 
   32  amixer cset iface=MIXER,name='RX3 Digital Volume' 100000
   33  aplay -D plughw:0,1 /usr/share/sounds/alsa/Side_Left.wav 
   34  amixer cset iface=MIXER,name='RX3 Digital Volume' 200
   35  amixer cset iface=MIXER,name='RX3 Digital Volume' 128
   36  aplay -D plughw:0,1 /usr/share/sounds/alsa/Side_Left.wav 
   37  amixer cset iface=MIXER,name='RX3 Digital Volume' 192
   38  aplay -D plughw:0,1 /usr/share/sounds/alsa/Side_Left.wav 
   39  amixer cset iface=MIXER,name='RX3 Digital Volume' 150
   40  aplay -D plughw:0,1 /usr/share/sounds/alsa/Side_Left.wav 
   41  amixer cset iface=MIXER,name='RX3 Digital Volume' 141
   42  aplay -D plughw:0,1 /usr/share/sounds/alsa/Side_Left.wav 
   43  amixer cset iface=MIXER,name='RX3 Digital Volume' 132
   44  aplay -D plughw:0,1 /usr/share/sounds/alsa/Side_Left.wav 
   45  amixer cset iface=MIXER,name='RX3 Digital Volume' 32
   46  aplay -D plughw:0,1 /usr/share/sounds/alsa/Side_Left.wav 
   47  amixer cset iface=MIXER,name='RX3 Digital Volume' 64
   48  aplay -D plughw:0,1 /usr/share/sounds/alsa/Side_Left.wav 
   49  amixer cset iface=MIXER,name='RX3 Digital Volume' 100
   50  aplay -D plughw:0,1 /usr/share/sounds/alsa/Side_Left.wav 
   51  amixer cset iface=MIXER,name='RX3 Digital Volume' 110
   52  aplay -D plughw:0,1 /usr/share/sounds/alsa/Side_Left.wav 
   53  amixer cset iface=MIXER,name='RX3 Digital Volume' 128
   54  aplay -D plughw:0,1 /usr/share/sounds/alsa/Side_Left.wav 
   55  amixer cset iface=MIXER,name='RX3 Digital Volume' 120
   56  aplay -D plughw:0,1 /usr/share/sounds/alsa/Side_Left.wav 
   57  amixer cset iface=MIXER,name='RX3 Digital Volume' 122
   58  aplay -D plughw:0,1 /usr/share/sounds/alsa/Side_Left.wav 
   59  amixer cset iface=MIXER,name='RX3 Digital Volume' 124
   60  aplay -D plughw:0,1 /usr/share/sounds/alsa/Side_Left.wav 
   61  amixer cset iface=MIXER,name='RX3 Digital Volume' 126
   62  aplay -D plughw:0,1 /usr/share/sounds/alsa/Side_Left.wav 
   63  amixer cset iface=MIXER,name='RX3 Digital Volume' 128
   64  aplay -D plughw:0,1 /usr/share/sounds/alsa/Side_Left.wav 
   65  amixer cset iface=MIXER,name='RX3 Digital Volume' 140
   66  aplay -D plughw:0,1 /usr/share/sounds/alsa/Side_Left.wav 
   67  amixer cset iface=MIXER,name='RX3 Digital Volume' 100
   68  aplay -D plughw:0,1 /usr/share/sounds/alsa/Side_Left.wav 
   69  cd /home/linaro/Downloads/
   70  wget https://srv12.soundcloudmp3.org/api/download/eyJpdiI6IjV0SzV3cFNmOE5qeE83QWtOc1RINlE9PSIsInZhbHVlIjoidWh5R3dGT2VPaFFqNFdBTG9idUE3UXlreDUrb3NRbDN4cDQ1VVcrZWp1NjVaVzJoZTdRRE9Kb1U1YmFJXC9jVUxZNEh3OHRGZ09xY2l2UnFmZTdXampIQWRCRnhMVE9hK2JNNW5MMldVK25Sb0tRcFl5WHUrNlZjbnU1dzlpS0xOIiwibWFjIjoiYmQxZWQ3ZGZmMjg2ZjllMzY2MzI0NDRhZTRjY2FlZmJlZDE0Y2JkMTMwNjVhMGMwNTE2YTMzNmI3MmM5OTRkNSJ9 skrillex.mp3
   71  aplay -D plughw:0,1 /usr/share/sounds/alsa/Side_Left.wav
   72  aplay -D plughw:0,1 /usr/share/sounds/alsa/Side_Left.wav 
   73  amixer cset iface=MIXER,name='RX3 Digital Volume' 128
   74  aplay -D plughw:0,1 /usr/share/sounds/alsa/Side_Left.wav 
   75  ls
   76  rm eyJpdiI6IjV0SzV3cFNmOE5qeE83QWtOc1RINlE9PSIsInZhbHVlIjoidWh5R3dGT2VPaFFqNFdBTG9idUE3UXlreDUrb3NRbDN4cDQ1VVcrZWp1NjVaVzJoZTdRRE9Kb1U1YmFJXC9jVUxZNEh3OHRGZ09xY2l2UnFmZTdXampIQWRCRnhMVE9hK2JNNW5MMldVK25Sb0tRcFl5WHUrNlZjbnU1dzlpS0xOIiwibWFj skrillex.mp3
   77  ls
   78  wget https://srv12.soundcloudmp3.org/api/download/eyJpdiI6IjV0SzV3cFNmOE5qeE83QWtOc1RINlE9PSIsInZhbHVlIjoidWh5R3dGT2VPaFFqNFdBTG9idUE3UXlreDUrb3NRbDN4cDQ1VVcrZWp1NjVaVzJoZTdRRE9Kb1U1YmFJXC9jVUxZNEh3OHRGZ09xY2l2UnFmZTdXampIQWRCRnhMVE9hK2JNNW5MMldVK25Sb0tRcFl5WHUrNlZjbnU1dzlpS0xOIiwibWFjIjoiYmQxZWQ3ZGZmMjg2ZjllMzY2MzI0NDRhZTRjY2FlZmJlZDE0Y2JkMTMwNjVhMGMwNTE2YTMzNmI3MmM5OTRkNSJ9 -o  skrillex.mp3
   79  ls
   80  ls -l
   81  rm skrillex.mp3 
   82  mv eyJpdiI6IjV0SzV3cFNmOE5qeE83QWtOc1RINlE9PSIsInZhbHVlIjoidWh5R3dGT2VPaFFqNFdBTG9idUE3UXlreDUrb3NRbDN4cDQ1VVcrZWp1NjVaVzJoZTdRRE9Kb1U1YmFJXC9jVUxZNEh3OHRGZ09xY2l2UnFmZTdXampIQWRCRnhMVE9hK2JNNW5MMldVK25Sb0tRcFl5WHUrNlZjbnU1dzlpS0xOIiwibWFj skrillex.mp3
   83  ls
   84  ls -l
   85  aplay -D plughw:0,1 /home/linaro/Downloads/skrillex.mp3 
   86  aplay -D plughw:0,1 /home/linaro/Downloads/skrillex.mp3 
   87  aplay -D plughw:0,1 /usr/share/sounds/alsa/Side_Left.wav 
   88  aplay -D plughw:0,1 /usr/share/sounds/alsa/Side_Left.wav 
   89  aplay -D plughw:0,1 /usr/share/sounds/alsa/Side_Left.wav 
   90  aplay -D plughw:0,1 /usr/share/sounds/alsa/Side_Left.wav 
   91  aplay -D plughw:0,1 /usr/share/sounds/alsa/Side_Left.wav 
   92  aplay -D plughw:0,1 /home/linaro/Downloads/skrillex.mp3 
   93  amixer cset iface=MIXER,name='RX3 Digital Volume' 100
   94  aplay -D plughw:0,1 /home/linaro/Downloads/skrillex.mp3 
   95  amixer cset iface=MIXER,name='RX3 Digital Volume' 128
   96  aplay -D plughw:0,1 /usr/share/sounds/alsa/Side_Left.wav 
   97  aplay -D plughw:0,1 /usr/share/sounds/alsa/Side_Left.wav 
   98  aplay -D plughw:0,1 /usr/share/sounds/alsa/Side_Left.wav 
   99  rm skrillex.mp3 
  100  wget https://srv12.soundcloudmp3.org/api/download/eyJpdiI6IjV0SzV3cFNmOE5qeE83QWtOc1RINlE9PSIsInZhbHVlIjoidWh5R3dGT2VPaFFqNFdBTG9idUE3UXlreDUrb3NRbDN4cDQ1VVcrZWp1NjVaVzJoZTdRRE9Kb1U1YmFJXC9jVUxZNEh3OHRGZ09xY2l2UnFmZTdXampIQWRCRnhMVE9hK2JNNW5MMldVK25Sb0tRcFl5WHUrNlZjbnU1dzlpS0xOIiwibWFjIjoiYmQxZWQ3ZGZmMjg2ZjllMzY2MzI0NDRhZTRjY2FlZmJlZDE0Y2JkMTMwNjVhMGMwNTE2YTMzNmI3MmM5OTRkNSJ9 -o s.mp3
  101  ls =l
  102  ls -l
  103  rm s.mp3 
  104  mv eyJpdiI6IjV0SzV3cFNmOE5qeE83QWtOc1RINlE9PSIsInZhbHVlIjoidWh5R3dGT2VPaFFqNFdBTG9idUE3UXlreDUrb3NRbDN4cDQ1VVcrZWp1NjVaVzJoZTdRRE9Kb1U1YmFJXC9jVUxZNEh3OHRGZ09xY2l2UnFmZTdXampIQWRCRnhMVE9hK2JNNW5MMldVK25Sb0tRcFl5WHUrNlZjbnU1dzlpS0xOIiwibWFj skrillex.mp3
  105  sudo apt-get install mplayer
  106  sudo apt-get update
  107  sudo apt-get install brew
  108  brew
  109  sudo apt-get install mplayer
  110  ls
  111  mplayer skrillex.mp3 
  112  mplayer --help
  113  mplayer -ao help
  114  mplayer -ao alsa skrillex.mp3 
  115  aplay -D plughw:0,1 /usr/share/sounds/alsa/Side_Left.wav 
  116  mplayer skrillex.mp3 
  117  mplayer -ao alsa skrillex.mp3 
  118  aplay --help
  119  amixer
  120  amixer --help
  121  sudo mplayer -ao alsa skrillex.mp3 
  122  sudo mplayer skrillex.mp3 
  123  amixer --help
  124  sudo reboot
  125  sudo apt-get install ffmpeg
  126  ffmpeg -i /home/linaro/Downloads/skrillex.mp3 skrilux.wav
  127  ls
  128  aplay -D plughw:0,1 /usr/share/sounds/alsa/Side_Left.wav 
  129  aplay -D plughw:0,1 /root/skrilux.wav 
  130  ps
  131  kill -9 2445
  132  mplayer /root/skrilux.wav 
  133  amixer cset iface=MIXER,name='RX3 Digital Volume' 100
  134  amixer cset iface=MIXER,name='RX3 Digital Volume' 120
  135  aplay -D plughw:0,1 /root/skrilux.wav 
  136  ls /
  137  ls /dev
  138  cat /dev/i2c-0
  139  i2cdetect 
  140  i2cdetect -a
  141  i2cdetect -F
  142  i2cdetect -l
  143  i2cdetect -lr
  144  i2cdetect -l -r
  145  i2cdump 
  146  i2cdump 0
  147  i2cget 
  148  i2cdetect -F 
  149  i2cdetect -F 0
  150  i2cdetect -r 0
  151  i2cdetect -r 0
  152  i2cdetect -r 0
  153  i2cdetect -r 0
  154  i2cdetect -r 0
  155  i2cdetect -r 0
  156  i2cdetect
  157  i2cget 
  158  i2cget 0 58
  159  i2cdetect -r 0
  160  i2cget 
  161  i2cget 0 0x50
  162  i2cget 0 0x50
  163  i2cget 0 0x50
  164  i2cget 0 0x50
  165  i2cget 0 0x50
  166  i2cget 0 0x68
  167  i2cget 0 0x68
  168  i2cget 0 0x68
  169  i2cget 0 0x68
  170  i2cget 0 0x68
  171  i2cget 0 0x68
  172  i2cget 0 0x50
  173  i2cget 0 0x50
  174  i2cget
  175  i2cget 0 0x50 0x01
  176  i2cget 0 0x50 0x01
  177  i2cget -f -y 0 0x50 0x01 
  178  i2cget -f -y 0 0x50 0x01 
  179  i2cget -f -y 0 0x50 0x03 
  180  i2cget -f -y 0 0x50
  181  i2cget 0 0x50
  182  i2cget -f -y 0 0x50 0x00
  183  i2cget -f -y 0 0x50 0x06
  184  i2cget -f -y 0 0x68 0x00
  185  i2cget -f -y 0 0x68 0x00
  186  i2cget -f -y 0 0x68 0x00
  187  i2cget -f -y 0 0x68 0x00
  188  i2cget -f -y 0 0x68 0x01
  189  i2cget -f -y 0 0x68 0x00
  190  i2cget -f -y 0 0x68 0x00
  191  i2cget -f -y 0 0x68 0x01
  192  i2cget -f -y 0 0x68 0x04
  193  i2cget -f -y 0 0x68 0x04
  194  i2cget -f -y 0 0x68 0x04
  195  i2cget -f -y 0 0x68 0x07
  196  i2cget -f -y 0 0x68 0x07
  197  i2cget -f -y 0 0x68 0x09
  198  i2cset 
  199  i2cset 0 0x50 0x09 0x69
  200  i2cset 0 0x50 0x09 0x69
  201  i2cget 0 0x50 0x09
  202  i2cset 0 0x68 0x09 0x69
  203  i2cget 0 0x68 0x09
  204  i2cset 0 0x68 0x09 0x20
  205  i2cset -f 0 0x68 0x09 0x20
  206  i2cset -y 0 0x68 0x09 0x20
  207  i2cget -y 0 0x68 0x09
  208  i2cset -y 0 0x68 0x09 0x23
  209  i2cget -y 0 0x68 0x09
  210  i2cget -y 0 0x68 0x01
  211  i2cget -y 0 0x50 0x01
  212  i2cget -y 0 0x68 0x01
  213  i2cget -y 0 0x68 0x01
  214  i2cget -y 0 0x68 0x01
  215  i2cget -y 0 0x68 0x01
  216  i2cget -y 0 0x68 0x01
  217  i2cget -y 0 0x68 0x01
  218  i2cget -y 0 0x68 0x01
  219  i2cget -y 0 0x68 0x01
  220  i2cget -y 0 0x68 0x01
  221  i2cget -y 0 0x68 0x01
  222  i2cget -y 0 0x68 0x01
  223  i2cget -y 0 0x68 0x01
  224  i2cget -y 0 0x68 0x01
  225  i2cget -y 0 0x68 0x01
  226  i2cget -y 0 0x68 0x01
  227  i2cget -y 0 0x68 0x01
  228  i2cget -y 0 0x68 0x01
  229  i2cget -y 0 0x68 0x01
  230  i2cget -y 0 0x68 0x01
  231  watch i2cget -y 0 0x68 0x01
  232  i2cget -y 0 0x68 0x01
  233  i2cget -y 0 0x68 0x00
  234  i2cget -y 0 0x68 0x01
  235  i2cget -y 0 0x68 0x02
  236  i2cget -y 0 0x68 0x03
  237  i2cget -y 0 0x68 0x03
  238  i2cget -y 0 0x68 0x04
  239  i2cget -y 0 0x68 0x03
  240  i2cget -y 0 0x68 0x00
  241  i2cget -y 0 0x68 0x03
  242  watch --help
  243  wathc -n 1 i2cget -y 0 0x68 0x0
  244  watch -n 1 i2cget -y 0 0x68 0x0
  245  watch -n 1 i2cget -y 0 0x50 0x0
  246  i2cget -y 0 0x68 0x09
  247  history
  248  aplay -D plughw:0,1 skrilux.wav 
  249  ps
  250  ps
  251  kill -9 2452
  252  aplay -D plughw:0,1 skrilux.wav 
  253  ps
  254  kill -9 2947
  255  sudo apt-get upgrade
  256  sudo reboot
  257  sudo apt-get update
  258  sudo apt-get upgrade
  259  sudo apt-get install autoconf libtool automake bison python-dev swig
  260  git clone https://github.com/cmusphinx/pocketsphinx.git
  261  git clone https://github.com/cmusphinx/pocketsphinx.git
  262  sudo reboot
  263  cd /root
  264  emacs hello_sphinx.c
  265  rm hello_sphinx
  266  mv hello_sphinx.c hello_ps.c
  267  pkg-config --cflags --libs pocetsphinx sphinxbase
  268  ls /usr/local/include/pocketsphinx/
  269  ls /usr/local/lib/
  270  gcc -o hello_ps hello_ps.c -DMODELDIR=\"'pkg-config --variable=modeldir pocketsphinx'\" 'pkg-config --cflags --libs pocketsphinx sphinxbase'
  271  pkg-config --variable=modeldir pocketsphinx
  272  /usr/local/share/pocketsphinx/model
  273  emacs hello_ps.c 
  274  ls /usr/local/share/pocketsphinx/model
  275  ls /usr/local/share/pocketsphinx/model/en-us/
  276  gcc -o hello_ps hello_ps.c -lpocketsphinx -lsphinxbase -lsphinxad
  277  gcc -o hello_ps hello_ps.c -I/usr/local/include -I/usr/local/include/sphinxbase -I/usr/local/include/pocketsphinx -L/usr/local/lib -lpocketsphinx -lsphinxbase -lsphinxad
  278  nano hello_ps.c
  279  emacs --nw  hello_ps.c
  280  emacs -nw hello_ps.c
  281  gcc -o hello_ps hello_ps.c -I/usr/local/include -I/usr/local/include/sphinxbase -I/usr/local/include/pocketsphinx -L/usr/local/lib -lpocketsphinx -lsphinxbase -lsphinxad
  282  ls
  283  cp pocetsphinx/test/data/goforward.raw ./
  284  ./hello_ps 
  285  cd /root
  286  ls
  287  rm hello_ps.c~
  288  rm hello_sphinx.c~ 
  289  history
  290  rm hello_ps
  291  mkdir hello_ps
  292  mv hello_ps.c hello_ps/
  293  mv goforward.raw hello_ps/
  294  ls
  295  cd hello_ps/
  296  ls
  297  emacs -nw Makefile
  298  make
  299  ls
  300  ./hello_ps 
  301  emacs -nw hello_ps
  302  emacs -nw hello_ps.c 
  303  make
  304  df
  305  ./hello_ps 
  306  ./hello_ps 
  307  emacs -nw hello_ps.c 
  308  ls
  309  rm hello_ps
  310  rm hello_ps.c~
  311  cd ../
  312  git clone https://github.com/mbstrange/ECE453Project.git
  313  ls
  314  mkdir ECE453Project/Seahaven/pocketsphinx
  315  mv hello_ps/* ECE453Project/Seahaven/pocketsphinx/
  316  cd ECE453Project/Seahaven/pocketsphinx/
  317  ls
  318  git status
  319  git add -A
  320  git commit -m "added PocketSphinx hello world"
  321  git config --global user.email "sjfricke@wisc.edu"
  322  git config --global user.name "sjfricke"
  323  git commit -m "added PocketSphinx hello world"
  324  git push
  325  emacs -nw hello_ps.c 
  326  cp hello_ps.c mic_test.c
  327  emacs -nw mic_test.c 
  328  cd /root/ECE453Project/Seahaven/pocketsphinx/
  329  emacs -nw mic_test.c
  330  make mic
  331  emacs -nw mic_test.c
  332  make mic
  333  ./mic_test 
  334  cd /root/ECE453Project/
  335  git pull
  336  sudo apt-get update
  337  d
  338  sudo apt-get upgrade
  339  cd /root
  340  amixer
  341  amixer scontents
  342  amixer --help
  343  amixer scontents
  344  amixer scontrols
  345  amixer -c 
  346  amixer -c 0
  347  amixer -c 0 cset -iface=MIXER,name='ADC2 MUX' 'INP3'
  348  amixer -c 0 cset iface=MIXER,name='ADC2 MUX' 'INP3'
  349  #aplay -c 0 -D plughw;0,1 /usr/share/sounds/alsa/Front_Center.wav 
  350  amixer -c 0 cset iface=MIXER,name='ADC2 Volume' 128
  351  amixer -c 0 cset iface=MIXER,name='ADC2 Volume' 70
  352  amixer -c 0 cset iface=MIXER,name='ADC2 Volume' 70
  353  aplay -c 0 -D plughw;0,1 /usr/share/sounds/alsa/Front_Center.wav 
  354  aplay -D plughw;0,1 /usr/share/sounds/alsa/Front_Center.wav 
  355  amixer -c 0 cset iface=MIXER,name='ADC2 Volume' 100
  356  amixer -c 0 cset iface=MIXER,name='RX3 MIX1 INP1' RX1'
  357  amixer -c 0 cset iface=MIXER,name='RX3 MIX1 INP1' 'RX1'
  358  amixer -c 0 cset iface=MIXER,name='SPK DAC Switch' 1
  359  aplay -D plughw;0,1 /usr/share/sounds/alsa/Front_Center.wav 
  360  aplay -D plughw:0,1 /usr/share/sounds/alsa/Front_Center.wav 
  361  aplay -D plughw:0,1 /usr/share/sounds/alsa/Front_Center.wav 
  362  aplay -D plughw:0,1 /usr/share/sounds/alsa/Front_Center.wav 
  363  amixer -c 0 cset iface=MIXER,name='ADC2 Volume' 120
  364  aplay -D plughw:0,1 /usr/share/sounds/alsa/Front_Center.wav 
  365  aplay -D plughw:0,1 /usr/share/sounds/alsa/Front_Center.wav 
  366* aplay -D plughw:0,1 /root/skr.wav 
  367  ps -a
  368  sudo kill -9 2366
  369  aplay -D plughw:0,1 /usr/share/sounds/alsa/Front_Center.wav 
  370  arecord -c 0 -D plughw:0,2 -r 16000 -f S16_LE /root/max0.wav
  371  arecord -c 0 -D plughw:0,2 -r 48000 -f S16_LE /root/max0.wav
  372  arecord -D plughw:0,2 -r 48000 -f S16_LE /root/max0.wav
  373  rm max0.wav 
  374  arecord -c 0 -D plughw:0,2 -r 16000 -f S16_LE /root/max0.wav
  375  arecord -D plughw:0,2 -r 16000 -f S16_LE /root/max0.wav
  376  rm max0.wav 
  377  arecord -D plughw:0,2 -r 48000 -f S16_LE /root/max0.wav
  378  aplay -D plughw:0,1 /usr/share/sounds/alsa/Front_Center.wav 
  379  aplay -D plughw:0,1 /root/max0.wav 
  380  aplay -D plughw:0,1 /root/max0.wav 
  381  aplay -D plughw:0,1 /root/max0.wav 
  382  arecord -D plughw:0,2 -r 48000 -f S16_LE /root/max1.wav
  383  ls
  384  ls -la
  385  aplay -D plughw:0,1 /usr
  386  aplay -D plughw:0,1 /usr/share/sounds/alsa/Front_Left.wav 
  387  aplay -D plughw:0,1 /root/max1.wav 
  388  aplay -D plughw:0,1 /root/max1.wav 
  389  aplay -D plughw:0,1 /root/max1.wav 
  390  aplay -D plughw:0,1 /root/max1.wav 
  391  arecord -D plughw:0,2 -r 48000 -f S16_LE /root/max2.wav
  392  aplay -D plughw:0,1 /root/max2.wav 
  393  amixer -c 0 cset iface=MIXER,name='ADC2 Volume' 200
  394  arecord -D plughw:0,2 -r 48000 -f S16_LE /root/max2.wav
  395  arecord -D plughw:0,2 -r 48000 -f S16_LE /root/max3.wav
  396  amixer -c 0 cset iface=MIXER,name='ADC2 Volume' 128
  397  aplay -D plughw:0,1 /usr/share/sounds/alsa/Front_Left.wav 
  398  aplay -D plughw:0,1 /usr/share/sounds/alsa/Front_Left.wav 
  399  amixer -c 0
  400  amixer -c 0 cset iface=MIXER,name='RX3 Digital' 128
  401  amixer -c 0 cset iface=MIXER,name='RX3 Volume' 128
  402  amixer -c 0 cget iface=MIXER,name='RX3 Digital'
  403  amixer -c 0 cget iface=MIXER,name='RX3 MIX1 INP1'
  404  amixer -c 0 cget iface=MIXER,name='RX3 Digital'
  405  amixer -c 0 cget iface=MIXER,name='RX3'
  406  amixer -c 0 cget iface=MIXER,name='RX3 Digital Volume'
  407  amixer -c 0 cset iface=MIXER,name='RX3 Digital Volume' 128
  408  aplay -D plughw:0,1 /usr/share/sounds/alsa/Front_Left.wav 
  409  amixer -c 0 cset iface=MIXER,name='RX3 Digital Volume' 140
  410  aplay -D plughw:0,1 /usr/share/sounds/alsa/Front_Left.wav 
  411  arecord -D plughw:0,2 -r 48000 -f S16_LE /root/max3.wav
  412  arecord -D plughw:0,2 -r 48000 -f S16_LE /root/max3.wav
  413  aplay -D plughw:0,1 /root/max2.wav 
  414  amixer -c 0 cset iface=MIXER,name='RX3 Digital Volume' 150
  415  aplay -D plughw:0,1 /root/max2.wav 
  416  aplay -D plughw:0,1 /root/max2.wav 
  417  history >> audio_record_commands.txt
